Standard ID: 0x418       DLC: 8  Data: 0x20 0x53 0x52 0x08 0xFF 0xFF 0xBF 0xFF
Standard ID: 0x338       DLC: 8  Data: 0x00 0x00 0x6F 0xFF 0xFF 0xFF 0x00 0x00
Standard ID: 0x418       DLC: 8  Data: 0x20 0x53 0x52 0x08 0xFF 0xFF 0x7F 0xFF
Standard ID: 0x418       DLC: 8  Data: 0x20 0x53 0x52 0x08 0xFF 0xFF 0x7F 0xFF
Standard ID: 0x338       DLC: 8  Data: 0x00 0x00 0x6F 0xFF 0xFF 0xFF 0x00 0x00
Standard ID: 0x418       DLC: 8  Data: 0x20 0x53 0x52 0x08 0xFF 0xFF 0x7F 0xFF
Standard ID: 0x418       DLC: 8  Data: 0x20 0x53 0x52 0x08 0xFF 0xFF 0x7F 0xFF
Standard ID: 0x338       DLC: 8  Data: 0x00 0x00 0x0F 0xFF 0xFF 0xFF 0x00 0x00
Standard ID: 0x418       DLC: 8  Data: 0x20 0x53 0x52 0x08 0xFF 0xFF 0xBF 0xFF
Standard ID: 0x418       DLC: 8  Data: 0x20 0x53 0x52 0x08 0xFF 0xFF 0xBF 0xFF
Standard ID: 0x218       DLC: 8  Data: 0x4B 0x84 0xFF 0x48 0x10 0x00 0xFF 0x00
Standard ID: 0x418       DLC: 8  Data: 0x20 0x53 0x52 0x08 0xFF 0xFF 0xBF 0xFF
Standard ID: 0x418       DLC: 8  Data: 0x20 0x53 0x52 0x08 0xFF 0xFF 0xBF 0xFF
Standard ID: 0x418       DLC: 8  Data: 0x20 0x53 0x52 0x08 0xFF 0xFF 0x7F 0xFF
Standard ID: 0x338       DLC: 8  Data: 0x00 0x00 0x6F 0xFF 0xFF 0xFF 0x00 0x00
Standard ID: 0x418       DLC: 8  Data: 0x20 0x53 0x52 0x08 0xFF 0xFF 0x7F 0xFF
Standard ID: 0x418       DLC: 8  Data: 0x20 0x53 0x52 0x08 0xFF 0xFF 0x7F 0xFF
Standard ID: 0x338       DLC: 8  Data: 0x00 0x00 0x6F 0xFF 0xFF 0xFF 0x00 0x00
Standard ID: 0x418       DLC: 8  Data: 0x20 0x53 0x52 0x08 0xFF 0xFF 0x7F 0xFF
Standard ID: 0x418       DLC: 8  Data: 0x20 0x53 0x52 0x08 0xFF 0xFF 0xBF 0xFF
Standard ID: 0x338       DLC: 8  Data: 0x00 0x00 0x0F 0xFF 0xFF 0xFF 0x00 0x00
Standard ID: 0x418       DLC: 8  Data: 0x20 0x53 0x52 0x08 0xFF 0xFF 0xBF 0xFF
Standard ID: 0x418       DLC: 8  Data: 0x20 0x53 0x52 0x08 0xFF 0xFF 0xBF 0xFF
Standard ID: 0x338       DLC: 8  Data: 0x00 0x00 0x0F 0xFF 0xFF 0xFF 0x00 0x00
Standard ID: 0x418       DLC: 8  Data: 0x20 0x53 0x52 0x08 0xFF 0xFF 0xBF 0xFF
Standard ID: 0x418       DLC: 8  Data: 0x20 0x53 0x52 0x08 0xFF 0xFF 0x7F 0xFF
Standard ID: 0x338       DLC: 8  Data: 0x00 0x00 0x6F 0xFF 0xFF 0xFF 0x00 0x00
Standard ID: 0x418       DLC: 8  Data: 0x20 0x53 0x52 0x08 0xFF 0xFF 0x7F 0xFF
Standard ID: 0x418       DLC: 8  Data: 0x20 0x53 0x52 0x08 0xFF 0xFF 0x7F 0xFF
Standard ID: 0x338       DLC: 8  Data: 0x00 0x00 0x6F 0xFF 0xFF 0xFF 0x00 0x00
Standard ID: 0x418       DLC: 8  Data: 0x20 0x53 0x52 0x08 0xFF 0xFF 0x7F 0xFF
Standard ID: 0x418       DLC: 8  Data: 0x20 0x53 0x52 0x08 0xFF 0xFF 0xBF 0xFF
Standard ID: 0x338       DLC: 8  Data: 0x00 0x00 0x0F 0xFF 0xFF 0xFF 0x00 0x00
Standard ID: 0x418       DLC: 8  Data: 0x20 0x53 0x52 0x08 0xFF 0xFF 0xBF 0xFF
Standard ID: 0x418       DLC: 8  Data: 0x20 0x53 0x52 0x08 0xFF 0xFF 0xBF 0xFF
Standard ID: 0x338       DLC: 8  Data: 0x00 0x00 0x0F 0xFF 0xFF 0xFF 0x00 0x00
Standard ID: 0x418       DLC: 8  Data: 0x20 0x53 0x52 0x08 0xFF 0xFF 0xBF 0xFF
Standard ID: 0x418       DLC: 8  Data: 0x20 0x53 0x52 0x08 0xFF 0xFF 0x7F 0xFF
Standard ID: 0x418       DLC: 8  Data: 0x20 0x53 0x52 0x08 0xFF 0xFF 0x7F 0xFF
Standard ID: 0x338       DLC: 8  Data: 0x00 0x00 0x6F 0xFF 0xFF 0xFF 0x00 0x00
Standard ID: 0x418       DLC: 8  Data: 0x20 0x53 0x52 0x08 0xFF 0xFF 0x7F 0xFF
Standard ID: 0x418       DLC: 8  Data: 0x20 0x53 0x52 0x08 0xFF 0xFF 0x7F 0xFF
Standard ID: 0x338       DLC: 8  Data: 0x00 0x00 0x0F 0xFF 0xFF 0xFF 0x00 0x00
Standard ID: 0x418       DLC: 8  Data: 0x20 0x53 0x52 0x08 0xFF 0xFF 0xBF 0xFF
Standard ID: 0x418       DLC: 8  Data: 0x20 0x53 0x52 0x08 0xFF 0xFF 0xBF 0xFF
Standard ID: 0x338       DLC: 8  Data: 0x00 0x00 0x0F 0xFF 0xFF 0xFF 0x00 0x00
Standard ID: 0x418       DLC: 8  Data: 0x20 0x53 0x52 0x08 0xFF 0xFF 0xBF 0xFF
Standard ID: 0x418       DLC: 8  Data: 0x20 0x53 0x52 0x08 0xFF 0xFF 0xBF 0xFF
Standard ID: 0x338       DLC: 8  Data: 0x00 0x00 0x6F 0xFF 0xFF 0xFF 0x00 0x00
Standard ID: 0x418       DLC: 8  Data: 0x20 0x53 0x52 0x08 0xFF 0xFF 0x7F 0xFF
Standard ID: 0x418       DLC: 8  Data: 0x20 0x53 0x52 0x08 0xFF 0xFF 0x7F 0xFF
Standard ID: 0x338       DLC: 8  Data: 0x00 0x00 0x6F 0xFF 0xFF 0xFF 0x00 0x00
Standard ID: 0x418       DLC: 8  Data: 0x20 0x53 0x52 0x08 0xFF 0xFF 0x7F 0xFF
Standard ID: 0x418       DLC: 8  Data: 0x20 0x53 0x52 0x08 0xFF 0xFF 0x7F 0xFF
Standard ID: 0x338       DLC: 8  Data: 0x00 0x00 0x0F 0xFF 0xFF 0xFF 0x00 0x00
Standard ID: 0x418       DLC: 8  Data: 0x20 0x53 0x52 0x08 0xFF 0xFF 0xBF 0xFF
Standard ID: 0x418       DLC: 8  Data: 0x20 0x53 0x52 0x08 0xFF 0xFF 0xBF 0xFF
Standard ID: 0x338       DLC: 8  Data: 0x00 0x00 0x0F 0xFF 0xFF 0xFF 0x00 0x00
Standard ID: 0x418       DLC: 8  Data: 0x20 0x53 0x52 0x08 0xFF 0xFF 0xBF 0xFF
Standard ID: 0x418       DLC: 8  Data: 0x20 0x53 0x52 0x08 0xFF 0xFF 0xBF 0xFF
Standard ID: 0x338       DLC: 8  Data: 0x00 0x00 0x6F 0xFF 0xFF 0xFF 0x00 0x00
Standard ID: 0x418       DLC: 8  Data: 0x20 0x53 0x52 0x08 0xFF 0xFF 0x7F 0xFF
Standard ID: 0x418       DLC: 8  Data: 0x20 0x53 0x52 0x08 0xFF 0xFF 0x7F 0xFF
Standard ID: 0x218       DLC: 8  Data: 0xCB 0x84 0xFF 0x48 0x10 0x80 0xFF 0x12
Standard ID: 0x418       DLC: 8  Data: 0x20 0x53 0x52 0x08 0xFF 0xFF 0x7F 0xFF
Standard ID: 0x418       DLC: 8  Data: 0x20 0x53 0x52 0x08 0xFF 0xFF 0x7F 0xFF
Standard ID: 0x418       DLC: 8  Data: 0x20 0x53 0x52 0x08 0xFF 0xFF 0xBF 0xFF
Standard ID: 0x338       DLC: 8  Data: 0x00 0x00 0x0F 0xFF 0xFF 0xFF 0x00 0x00
Standard ID: 0x418       DLC: 8  Data: 0x20 0x53 0x52 0x08 0xFF 0xFF 0xBF 0xFF
Standard ID: 0x418       DLC: 8  Data: 0x20 0x53 0x52 0x08 0xFF 0xFF 0xBF 0xFF
Standard ID: 0x338       DLC: 8  Data: 0x00 0x00 0x0F 0xFF 0xFF 0xFF 0x00 0x00
Standard ID: 0x418       DLC: 8  Data: 0x20 0x53 0x52 0x08 0xFF 0xFF 0xBF 0xFF
Standard ID: 0x418       DLC: 8  Data: 0x20 0x53 0x52 0x08 0xFF 0xFF 0x7F 0xFF
Standard ID: 0x338       DLC: 8  Data: 0x00 0x00 0x6F 0xFF 0xFF 0xFF 0x00 0x00
Standard ID: 0x418       DLC: 8  Data: 0x20 0x53 0x52 0x08 0xFF 0xFF 0x7F 0xFF
Standard ID: 0x418       DLC: 8  Data: 0x20 0x53 0x52 0x08 0xFF 0xFF 0x7F 0xFF
Standard ID: 0x338       DLC: 8  Data: 0x00 0x00 0x6F 0xFF 0xFF 0xFF 0x00 0x00
Standard ID: 0x418       DLC: 8  Data: 0x20 0x53 0x52 0x08 0xFF 0xFF 0x7F 0xFF
Standard ID: 0x418       DLC: 8  Data: 0x20 0x53 0x52 0x08 0xFF 0xFF 0xBF 0xFF
Standard ID: 0x338       DLC: 8  Data: 0x00 0x00 0x0F 0xFF 0xFF 0xFF 0x00 0x00
Standard ID: 0x418       DLC: 8  Data: 0x20 0x53 0x52 0x08 0xFF 0xFF 0xBF 0xFF
Standard ID: 0x418       DLC: 8  Data: 0x20 0x53 0x52 0x08 0xFF 0xFF 0xBF 0xFF
Standard ID: 0x338       DLC: 8  Data: 0x00 0x00 0x0F 0xFF 0xFF 0xFF 0x00 0x00
Standard ID: 0x418       DLC: 8  Data: 0x20 0x53 0x52 0x08 0xFF 0xFF 0xBF 0xFF
Standard ID: 0x418       DLC: 8  Data: 0x20 0x53 0x52 0x08 0xFF 0xFF 0x7F 0xFF
Standard ID: 0x338       DLC: 8  Data: 0x00 0x00 0x6F 0xFF 0xFF 0xFF 0x00 0x00
Standard ID: 0x418       DLC: 8  Data: 0x20 0x53 0x52 0x08 0xFF 0xFF 0x7F 0xFF
Standard ID: 0x418       DLC: 8  Data: 0x20 0x53 0x52 0x08 0xFF 0xFF 0x7F 0xFF
Standard ID: 0x338       DLC: 8  Data: 0x00 0x00 0x6F 0xFF 0xFF 0xFF 0x00 0x00
Standard ID: 0x418       DLC: 8  Data: 0x20 0x53 0x52 0x08 0xFF 0xFF 0x7F 0xFF
Standard ID: 0x418       DLC: 8  Data: 0x20 0x53 0x52 0x08 0xFF 0xFF 0xBF 0xFF
Standard ID: 0x418       DLC: 8  Data: 0x20 0x53 0x52 0x08 0xFF 0xFF 0xBF 0xFF
Standard ID: 0x338       DLC: 8  Data: 0x00 0x00 0x0F 0xFF 0xFF 0xFF 0x00 0x00
Standard ID: 0x418       DLC: 8  Data: 0x20 0x53 0x52 0x08 0xFF 0xFF 0xBF 0xFF
Standard ID: 0x418       DLC: 8  Data: 0x20 0x53 0x52 0x08 0xFF 0xFF 0xBF 0xFF
Standard ID: 0x338       DLC: 8  Data: 0x00 0x00 0x6F 0xFF 0xFF 0xFF 0x00 0x00
Standard ID: 0x418       DLC: 8  Data: 0x20 0x53 0x52 0x08 0xFF 0xFF 0x7F 0xFF
Standard ID: 0x418       DLC: 8  Data: 0x20 0x53 0x52 0x08 0xFF 0xFF 0x7F 0xFF
Standard ID: 0x338       DLC: 8  Data: 0x00 0x00 0x6F 0xFF 0xFF 0xFF 0x00 0x00
Standard ID: 0x418       DLC: 8  Data: 0x20 0x53 0x52 0x08 0xFF 0xFF 0x7F 0xFF
Standard ID: 0x418       DLC: 8  Data: 0x20 0x53 0x52 0x08 0xFF 0xFF 0x7F 0xFF
Standard ID: 0x338       DLC: 8  Data: 0x00 0x00 0x0F 0xFF 0xFF 0xFF 0x00 0x00
Standard ID: 0x418       DLC: 8  Data: 0x20 0x53 0x52 0x08 0xFF 0xFF 0xBF 0xFF
Standard ID: 0x418       DLC: 8  Data: 0x20 0x53 0x52 0x08 0xFF 0xFF 0xBF 0xFF
Standard ID: 0x338       DLC: 8  Data: 0x00 0x00 0x0F 0xFF 0xFF 0xFF 0x00 0x00
Standard ID: 0x418       DLC: 8  Data: 0x20 0x53 0x52 0x08 0xFF 0xFF 0xBF 0xFF
Standard ID: 0x418       DLC: 8  Data: 0x20 0x53 0x52 0x08 0xFF 0xFF 0xBF 0xFF
Standard ID: 0x338       DLC: 8  Data: 0x00 0x00 0x6F 0xFF 0xFF 0xFF 0x00 0x00
Standard ID: 0x418       DLC: 8  Data: 0x20 0x53 0x52 0x08 0xFF 0xFF 0x7F 0xFF
Standard ID: 0x418       DLC: 8  Data: 0x20 0x53 0x52 0x08 0xFF 0xFF 0x7F 0xFF
Standard ID: 0x338       DLC: 8  Data: 0x00 0x00 0x6F 0xFF 0xFF 0xFF 0x00 0x00
Standard ID: 0x418       DLC: 8  Data: 0x20 0x53 0x52 0x08 0xFF 0xFF 0x7F 0xFF
Standard ID: 0x418       DLC: 8  Data: 0x20 0x53 0x52 0x08 0xFF 0xFF 0x7F 0xFF
Standard ID: 0x338       DLC: 8  Data: 0x00 0x00 0x0F 0xFF 0xFF 0xFF 0x00 0x00
Standard ID: 0x418       DLC: 8  Data: 0x20 0x53 0x52 0x08 0xFF 0xFF 0xBF 0xFF
Standard ID: 0x418       DLC: 8  Data: 0x20 0x53 0x52 0x08 0xFF 0xFF 0xBF 0xFF
Standard ID: 0x218       DLC: 8  Data: 0x4B 0x84 0xFF 0x48 0x10 0x00 0xFF 0x84
Standard ID: 0x418       DLC: 8  Data: 0x20 0x53 0x52 0x08 0xFF 0xFF 0xBF 0xFF
Standard ID: 0x418       DLC: 8  Data: 0x20 0x53 0x52 0x08 0xFF 0xFF 0xBF 0xFF
Standard ID: 0x418       DLC: 8  Data: 0x20 0x53 0x52 0x08 0xFF 0xFF 0x7F 0xFF
Standard ID: 0x338       DLC: 8  Data: 0x00 0x00 0x6F 0xFF 0xFF 0xFF 0x00 0x00
Standard ID: 0x418       DLC: 8  Data: 0x20 0x53 0x52 0x08 0xFF 0xFF 0x7F 0xFF
Standard ID: 0x418       DLC: 8  Data: 0x20 0x53 0x52 0x08 0xFF 0xFF 0x7F 0xFF
Standard ID: 0x338       DLC: 8  Data: 0x00 0x00 0x6F 0xFF 0xFF 0xFF 0x00 0x00
Standard ID: 0x418       DLC: 8  Data: 0x20 0x53 0x52 0x08 0xFF 0xFF 0x7F 0xFF
Standard ID: 0x418       DLC: 8  Data: 0x20 0x53 0x52 0x08 0xFF 0xFF 0xBF 0xFF
Standard ID: 0x338       DLC: 8  Data: 0x00 0x00 0x0F 0xFF 0xFF 0xFF 0x00 0x00
Standard ID: 0x418       DLC: 8  Data: 0x20 0x53 0x52 0x08 0xFF 0xFF 0xBF 0xFF
Standard ID: 0x418       DLC: 8  Data: 0x20 0x53 0x52 0x08 0xFF 0xFF 0xBF 0xFF
Standard ID: 0x338       DLC: 8  Data: 0x00 0x00 0x0F 0xFF 0xFF 0xFF 0x00 0x00
Standard ID: 0x418       DLC: 8  Data: 0x20 0x53 0x52 0x08 0xFF 0xFF 0xBF 0xFF
Standard ID: 0x418       DLC: 8  Data: 0x20 0x53 0x52 0x08 0xFF 0xFF 0x7F 0xFF
Standard ID: 0x338       DLC: 8  Data: 0x00 0x00 0x6F 0xFF 0xFF 0xFF 0x00 0x00
Standard ID: 0x418       DLC: 8  Data: 0x20 0x53 0x52 0x08 0xFF 0xFF 0x7F 0xFF
Standard ID: 0x418       DLC: 8  Data: 0x20 0x53 0x52 0x08 0xFF 0xFF 0x7F 0xFF
Standard ID: 0x338       DLC: 8  Data: 0x00 0x00 0x6F 0xFF 0xFF 0xFF 0x00 0x00
Standard ID: 0x418       DLC: 8  Data: 0x20 0x53 0x52 0x08 0xFF 0xFF 0x7F 0xFF
Standard ID: 0x418       DLC: 8  Data: 0x20 0x53 0x52 0x08 0xFF 0xFF 0xBF 0xFF
Standard ID: 0x338       DLC: 8  Data: 0x00 0x00 0x0F 0xFF 0xFF 0xFF 0x00 0x00
Standard ID: 0x418       DLC: 8  Data: 0x20 0x53 0x52 0x08 0xFF 0xFF 0xBF 0xFF
Standard ID: 0x418       DLC: 8  Data: 0x20 0x53 0x52 0x08 0xFF 0xFF 0xBF 0xFF
Standard ID: 0x338       DLC: 8  Data: 0x00 0x00 0x0F 0xFF 0xFF 0xFF 0x00 0x00
Standard ID: 0x418       DLC: 8  Data: 0x20 0x53 0x52 0x08 0xFF 0xFF 0xBF 0xFF
Standard ID: 0x418       DLC: 8  Data: 0x20 0x53 0x52 0x08 0xFF 0xFF 0x7F 0xFF
Standard ID: 0x418       DLC: 8  Data: 0x20 0x53 0x52 0x08 0xFF 0xFF 0x7F 0xFF
Standard ID: 0x338       DLC: 8  Data: 0x00 0x00 0x6F 0xFF 0xFF 0xFF 0x00 0x00
Standard ID: 0x418       DLC: 8  Data: 0x20 0x53 0x52 0x08 0xFF 0xFF 0x7F 0xFF
Standard ID: 0x418       DLC: 8  Data: 0x20 0x53 0x52 0x08 0xFF 0xFF 0x7F 0xFF
Standard ID: 0x338       DLC: 8  Data: 0x00 0x00 0x0F 0xFF 0xFF 0xFF 0x00 0x00
Standard ID: 0x418       DLC: 8  Data: 0x20 0x53 0x52 0x08 0xFF 0xFF 0xBF 0xFF
Standard ID: 0x418       DLC: 8  Data: 0x20 0x53 0x52 0x08 0xFF 0xFF 0xBF 0xFF
Standard ID: 0x338       DLC: 8  Data: 0x00 0x00 0x0F 0xFF 0xFF 0xFF 0x00 0x00
Standard ID: 0x418       DLC: 8  Data: 0x20 0x53 0x52 0x08 0xFF 0xFF 0xBF 0xFF
Standard ID: 0x418       DLC: 8  Data: 0x20 0x53 0x52 0x08 0xFF 0xFF 0xBF 0xFF
Standard ID: 0x338       DLC: 8  Data: 0x00 0x00 0x6F 0xFF 0xFF 0xFF 0x00 0x00
Standard ID: 0x418       DLC: 8  Data: 0x20 0x53 0x52 0x08 0xFF 0xFF 0x7F 0xFF
Standard ID: 0x418       DLC: 8  Data: 0x20 0x53 0x52 0x08 0xFF 0xFF 0x7F 0xFF
Standard ID: 0x338       DLC: 8  Data: 0x00 0x00 0x6F 0xFF 0xFF 0xFF 0x00 0x00
Standard ID: 0x418       DLC: 8  Data: 0x20 0x53 0x52 0x08 0xFF 0xFF 0x7F 0xFF
Standard ID: 0x418       DLC: 8  Data: 0x20 0x53 0x52 0x08 0xFF 0xFF 0x7F 0xFF
Standard ID: 0x338       DLC: 8  Data: 0x00 0x00 0x0F 0xFF 0xFF 0xFF 0x00 0x00
Standard ID: 0x418       DLC: 8  Data: 0x20 0x53 0x52 0x08 0xFF 0xFF 0xBF 0xFF
Standard ID: 0x418       DLC: 8  Data: 0x20 0x53 0x52 0x08 0xFF 0xFF 0xBF 0xFF
Standard ID: 0x338       DLC: 8  Data: 0x00 0x00 0x0F 0xFF 0xFF 0xFF 0x00 0x00
Standard ID: 0x418       DLC: 8  Data: 0x20 0x53 0x52 0x08 0xFF 0xFF 0xBF 0xFF
Standard ID: 0x418       DLC: 8  Data: 0x20 0x53 0x52 0x08 0xFF 0xFF 0xBF 0xFF
Standard ID: 0x338       DLC: 8  Data: 0x00 0x00 0x6F 0xFF 0xFF 0xFF 0x00 0x00
Standard ID: 0x418       DLC: 8  Data: 0x20 0x53 0x52 0x08 0xFF 0xFF 0x7F 0xFF
Standard ID: 0x418       DLC: 8  Data: 0x20 0x53 0x52 0x08 0xFF 0xFF 0x7F 0xFF
Standard ID: 0x218       DLC: 8  Data: 0xCB 0x84 0xFF 0x48 0x10 0x80 0xFF 0x16
Standard ID: 0x418       DLC: 8  Data: 0x20 0x53 0x52 0x08 0xFF 0xFF 0x7F 0xFF
Standard ID: 0x418       DLC: 8  Data: 0x20 0x53 0x52 0x08 0xFF 0xFF 0x7F 0xFF
Standard ID: 0x418       DLC: 8  Data: 0x20 0x53 0x52 0x08 0xFF 0xFF 0xBF 0xFF
Standard ID: 0x338       DLC: 8  Data: 0x00 0x00 0x0F 0xFF 0xFF 0xFF 0x00 0x00
Standard ID: 0x418       DLC: 8  Data: 0x20 0x53 0x52 0x08 0xFF 0xFF 0xBF 0xFF
Standard ID: 0x418       DLC: 8  Data: 0x20 0x53 0x52 0x08 0xFF 0xFF 0xBF 0xFF
Standard ID: 0x338       DLC: 8  Data: 0x00 0x00 0x0F 0xFF 0xFF 0xFF 0x00 0x00
Standard ID: 0x418       DLC: 8  Data: 0x20 0x53 0x52 0x08 0xFF 0xFF 0xBF 0xFF
Standard ID: 0x418       DLC: 8  Data: 0x20 0x53 0x52 0x08 0xFF 0xFF 0x7F 0xFF
Standard ID: 0x338       DLC: 8  Data: 0x00 0x00 0x6F 0xFF 0xFF 0xFF 0x00 0x00
Standard ID: 0x418       DLC: 8  Data: 0x20 0x53 0x52 0x08 0xFF 0xFF 0x7F 0xFF
Standard ID: 0x418       DLC: 8  Data: 0x20 0x53 0x52 0x08 0xFF 0xFF 0x7F 0xFF
Standard ID: 0x338       DLC: 8  Data: 0x00 0x00 0x6F 0xFF 0xFF 0xFF 0x00 0x00
Standard ID: 0x418       DLC: 8  Data: 0x20 0x53 0x52 0x08 0xFF 0xFF 0x7F 0xFF
Standard ID: 0x418       DLC: 8  Data: 0x20 0x53 0x52 0x08 0xFF 0xFF 0xBF 0xFF
Standard ID: 0x338       DLC: 8  Data: 0x00 0x00 0x0F 0xFF 0xFF 0xFF 0x00 0x00
Standard ID: 0x418       DLC: 8  Data: 0x20 0x53 0x52 0x08 0xFF 0xFF 0xBF 0xFF
Standard ID: 0x418       DLC: 8  Data: 0x20 0x53 0x52 0x08 0xFF 0xFF 0xBF 0xFF
Standard ID: 0x338       DLC: 8  Data: 0x00 0x00 0x0F 0xFF 0xFF 0xFF 0x00 0x00
Standard ID: 0x418       DLC: 8  Data: 0x20 0x53 0x52 0x08 0xFF 0xFF 0xBF 0xFF
Standard ID: 0x418       DLC: 8  Data: 0x20 0x53 0x52 0x08 0xFF 0xFF 0x7F 0xFF
Standard ID: 0x338       DLC: 8  Data: 0x00 0x00 0x6F 0xFF 0xFF 0xFF 0x00 0x00
Standard ID: 0x418       DLC: 8  Data: 0x20 0x53 0x52 0x08 0xFF 0xFF 0x7F 0xFF
Standard ID: 0x418       DLC: 8  Data: 0x20 0x53 0x52 0x08 0xFF 0xFF 0x7F 0xFF
Standard ID: 0x338       DLC: 8  Data: 0x00 0x00 0x6F 0xFF 0xFF 0xFF 0x00 0x00
Standard ID: 0x418       DLC: 8  Data: 0x20 0x53 0x52 0x08 0xFF 0xFF 0x7F 0xFF
Standard ID: 0x418       DLC: 8  Data: 0x20 0x53 0x52 0x08 0xFF 0xFF 0xBF 0xFF
Standard ID: 0x418       DLC: 8  Data: 0x20 0x53 0x52 0x08 0xFF 0xFF 0xBF 0xFF
Standard ID: 0x338       DLC: 8  Data: 0x00 0x00 0x0F 0xFF 0xFF 0xFF 0x00 0x00
Standard ID: 0x418       DLC: 8  Data: 0x20 0x53 0x52 0x08 0xFF 0xFF 0xBF 0xFF
Standard ID: 0x418       DLC: 8  Data: 0x20 0x53 0x52 0x08 0xFF 0xFF 0xBF 0xFF
Standard ID: 0x338       DLC: 8  Data: 0x00 0x00 0x6F 0xFF 0xFF 0xFF 0x00 0x00
Standard ID: 0x418       DLC: 8  Data: 0x20 0x53 0x52 0x08 0xFF 0xFF 0x7F 0xFF
Standard ID: 0x418       DLC: 8  Data: 0x20 0x53 0x52 0x08 0xFF 0xFF 0x7F 0xFF
Standard ID: 0x338       DLC: 8  Data: 0x00 0x00 0x6F 0xFF 0xFF 0xFF 0x00 0x00
Standard ID: 0x418       DLC: 8  Data: 0x20 0x53 0x52 0x08 0xFF 0xFF 0x7F 0xFF
Standard ID: 0x418       DLC: 8  Data: 0x20 0x53 0x52 0x08 0xFF 0xFF 0x7F 0xFF
Standard ID: 0x338       DLC: 8  Data: 0x00 0x00 0x0F 0xFF 0xFF 0xFF 0x00 0x00
Standard ID: 0x418       DLC: 8  Data: 0x20 0x53 0x52 0x08 0xFF 0xFF 0xBF 0xFF
Standard ID: 0x418       DLC: 8  Data: 0x20 0x53 0x52 0x08 0xFF 0xFF 0xBF 0xFF
Standard ID: 0x338       DLC: 8  Data: 0x00 0x00 0x0F 0xFF 0xFF 0xFF 0x00 0x00
Standard ID: 0x418       DLC: 8  Data: 0x20 0x53 0x52 0x08 0xFF 0xFF 0xBF 0xFF
Standard ID: 0x418       DLC: 8  Data: 0x20 0x53 0x52 0x08 0xFF 0xFF 0xBF 0xFF
Standard ID: 0x338       DLC: 8  Data: 0x00 0x00 0x6F 0xFF 0xFF 0xFF 0x00 0x00
Standard ID: 0x418       DLC: 8  Data: 0x20 0x53 0x52 0x08 0xFF 0xFF 0x7F 0xFF
Standard ID: 0x418       DLC: 8  Data: 0x20 0x53 0x52 0x08 0xFF 0xFF 0x7F 0xFF
Standard ID: 0x338       DLC: 8  Data: 0x00 0x00 0x6F 0xFF 0xFF 0xFF 0x00 0x00
Standard ID: 0x418       DLC: 8  Data: 0x20 0x53 0x52 0x08 0xFF 0xFF 0x7F 0xFF
Standard ID: 0x418       DLC: 8  Data: 0x20 0x53 0x52 0x08 0xFF 0xFF 0x7F 0xFF
Standard ID: 0x338       DLC: 8  Data: 0x00 0x00 0x0F 0xFF 0xFF 0xFF 0x00 0x00
Standard ID: 0x418       DLC: 8  Data: 0x20 0x53 0x52 0x08 0xFF 0xFF 0xBF 0xFF
Standard ID: 0x418       DLC: 8  Data: 0x20 0x53 0x52 0x08 0xFF 0xFF 0xBF 0xFF
Standard ID: 0x418       DLC: 8  Data: 0x20 0x53 0x52 0x08 0xFF 0xFF 0xBF 0xFF
Standard ID: 0x338       DLC: 8  Data: 0x00 0x00 0x0F 0xFF 0xFF 0xFF 0x00 0x00
Standard ID: 0x418       DLC: 8  Data: 0x20 0x53 0x52 0x08 0xFF 0xFF 0xBF 0xFF
Standard ID: 0x418       DLC: 8  Data: 0x20 0x53 0x52 0x08 0xFF 0xFF 0x7F 0xFF
Standard ID: 0x338       DLC: 8  Data: 0x00 0x00 0x6F 0xFF 0xFF 0xFF 0x00 0x00
Standard ID: 0x418       DLC: 8  Data: 0x20 0x53 0x52 0x08 0xFF 0xFF 0x7F 0xFF
Standard ID: 0x418       DLC: 8  Data: 0x20 0x53 0x52 0x08 0xFF 0xFF 0x7F 0xFF
Standard ID: 0x338       DLC: 8  Data: 0x00 0x00 0x6F 0xFF 0xFF 0xFF 0x00 0x00
Standard ID: 0x418       DLC: 8  Data: 0x20 0x53 0x52 0x08 0xFF 0xFF 0x7F 0xFF
Standard ID: 0x418       DLC: 8  Data: 0x20 0x53 0x52 0x08 0xFF 0xFF 0xBF 0xFF
Standard ID: 0x338       DLC: 8  Data: 0x00 0x00 0x0F 0xFF 0xFF 0xFF 0x00 0x00
Standard ID: 0x418       DLC: 8  Data: 0x20 0x53 0x52 0x08 0xFF 0xFF 0xBF 0xFF
Standard ID: 0x418       DLC: 8  Data: 0x20 0x53 0x52 0x08 0xFF 0xFF 0xBF 0xFF
Standard ID: 0x338       DLC: 8  Data: 0x00 0x00 0x0F 0xFF 0xFF 0xFF 0x00 0x00
Standard ID: 0x418       DLC: 8  Data: 0x20 0x53 0x52 0x08 0xFF 0xFF 0xBF 0xFF
Standard ID: 0x418       DLC: 8  Data: 0x20 0x53 0x52 0x08 0xFF 0xFF 0x7F 0xFF
Standard ID: 0x338       DLC: 8  Data: 0x00 0x00 0x6F 0xFF 0xFF 0xFF 0x00 0x00
Standard ID: 0x418       DLC: 8  Data: 0x20 0x53 0x52 0x08 0xFF 0xFF 0x7F 0xFF
Standard ID: 0x418       DLC: 8  Data: 0x20 0x53 0x52 0x08 0xFF 0xFF 0x7F 0xFF
Standard ID: 0x338       DLC: 8  Data: 0x00 0x00 0x6F 0xFF 0xFF 0xFF 0x00 0x00
Standard ID: 0x418       DLC: 8  Data: 0x20 0x53 0x52 0x08 0xFF 0xFF 0x7F 0xFF
Standard ID: 0x418       DLC: 8  Data: 0x20 0x53 0x52 0x08 0xFF 0xFF 0xBF 0xFF
Standard ID: 0x338       DLC: 8  Data: 0x00 0x00 0x0F 0xFF 0xFF 0xFF 0x00 0x00
Standard ID: 0x418       DLC: 8  Data: 0x20 0x53 0x52 0x08 0xFF 0xFF 0xBF 0xFF
Standard ID: 0x418       DLC: 8  Data: 0x20 0x53 0x52 0x08 0xFF 0xFF 0xBF 0xFF
Standard ID: 0x338       DLC: 8  Data: 0x00 0x00 0x0F 0xFF 0xFF 0xFF 0x00 0x00
Standard ID: 0x418       DLC: 8  Data: 0x20 0x53 0x52 0x08 0xFF 0xFF 0xBF 0xFF
Standard ID: 0x418       DLC: 8  Data: 0x20 0x53 0x52 0x08 0xFF 0xFF 0x7F 0xFF
Standard ID: 0x418       DLC: 8  Data: 0x20 0x53 0x52 0x08 0xFF 0xFF 0x7F 0xFF
Standard ID: 0x338       DLC: 8  Data: 0x00 0x00 0x6F 0xFF 0xFF 0xFF 0x00 0x00
Standard ID: 0x418       DLC: 8  Data: 0x20 0x53 0x52 0x08 0xFF 0xFF 0x7F 0xFF
Standard ID: 0x418       DLC: 8  Data: 0x20 0x53 0x52 0x08 0xFF 0xFF 0x7F 0xFF
Standard ID: 0x338       DLC: 8  Data: 0x00 0x00 0x0F 0xFF 0xFF 0xFF 0x00 0x00
Standard ID: 0x418       DLC: 8  Data: 0x20 0x53 0x52 0x08 0xFF 0xFF 0xBF 0xFF
Standard ID: 0x418       DLC: 8  Data: 0x20 0x53 0x52 0x08 0xFF 0xFF 0xBF 0xFF
Standard ID: 0x338       DLC: 8  Data: 0x00 0x00 0x0F 0xFF 0xFF 0xFF 0x00 0x00
Standard ID: 0x418       DLC: 8  Data: 0x20 0x53 0x52 0x08 0xFF 0xFF 0xBF 0xFF
Standard ID: 0x418       DLC: 8  Data: 0x20 0x53 0x52 0x08 0xFF 0xFF 0xBF 0xFF
Standard ID: 0x338       DLC: 8  Data: 0x00 0x00 0x6F 0xFF 0xFF 0xFF 0x00 0x00
Standard ID: 0x418       DLC: 8  Data: 0x20 0x53 0x52 0x08 0xFF 0xFF 0x7F 0xFF
Standard ID: 0x418       DLC: 8  Data: 0x20 0x53 0x52 0x08 0xFF 0xFF 0x7F 0xFF
Standard ID: 0x338       DLC: 8  Data: 0x00 0x00 0x6F 0xFF 0xFF 0xFF 0x00 0x00
Standard ID: 0x418       DLC: 8  Data: 0x20 0x53 0x52 0x08 0xFF 0xFF 0x7F 0xFF
Standard ID: 0x418       DLC: 8  Data: 0x20 0x53 0x52 0x08 0xFF 0xFF 0x7F 0xFF
Standard ID: 0x338       DLC: 8  Data: 0x00 0x00 0x0F 0xFF 0xFF 0xFF 0x00 0x00
Standard ID: 0x418       DLC: 8  Data: 0x20 0x53 0x52 0x08 0xFF 0xFF 0xBF 0xFF
Standard ID: 0x418       DLC: 8  Data: 0x20 0x53 0x52 0x08 0xFF 0xFF 0xBF 0xFF
Standard ID: 0x338       DLC: 8  Data: 0x00 0x00 0x0F 0xFF 0xFF 0xFF 0x00 0x00
Standard ID: 0x418       DLC: 8  Data: 0x20 0x53 0x52 0x08 0xFF 0xFF 0xBF 0xFF
Standard ID: 0x418       DLC: 8  Data: 0x20 0x53 0x52 0x08 0xFF 0xFF 0xBF 0xFF
Standard ID: 0x338       DLC: 8  Data: 0x00 0x00 0x6F 0xFF 0xFF 0xFF 0x00 0x00
Standard ID: 0x418       DLC: 8  Data: 0x20 0x53 0x52 0x08 0xFF 0xFF 0x7F 0xFF
Standard ID: 0x418       DLC: 8  Data: 0x20 0x53 0x52 0x08 0xFF 0xFF 0x7F 0xFF
Standard ID: 0x418       DLC: 8  Data: 0x20 0x53 0x52 0x08 0xFF 0xFF 0x7F 0xFF
Standard ID: 0x338       DLC: 8  Data: 0x00 0x00 0x6F 0xFF 0xFF 0xFF 0x00 0x00
Standard ID: 0x418       DLC: 8  Data: 0x20 0x53 0x52 0x08 0xFF 0xFF 0x7F 0xFF
Standard ID: 0x418       DLC: 8  Data: 0x20 0x53 0x52 0x08 0xFF 0xFF 0xBF 0xFF
Standard ID: 0x338       DLC: 8  Data: 0x00 0x00 0x0F 0xFF 0xFF 0xFF 0x00 0x00
Standard ID: 0x418       DLC: 8  Data: 0x20 0x53 0x52 0x08 0xFF 0xFF 0xBF 0xFF
Standard ID: 0x418       DLC: 8  Data: 0x20 0x53 0x52 0x08 0xFF 0xFF 0xBF 0xFF
Standard ID: 0x338       DLC: 8  Data: 0x00 0x00 0x0F 0xFF 0xFF 0xFF 0x00 0x00
Standard ID: 0x418       DLC: 8  Data: 0x20 0x53 0x52 0x08 0xFF 0xFF 0xBF 0xFF
Standard ID: 0x418       DLC: 8  Data: 0x20 0x53 0x52 0x08 0xFF 0xFF 0x7F 0xFF
Standard ID: 0x338       DLC: 8  Data: 0x00 0x00 0x6F 0xFF 0xFF 0xFF 0x00 0x00
Standard ID: 0x418       DLC: 8  Data: 0x20 0x53 0x52 0x08 0xFF 0xFF 0x7F 0xFF
Standard ID: 0x418       DLC: 8  Data: 0x20 0x53 0x52 0x08 0xFF 0xFF 0x7F 0xFF
Standard ID: 0x338       DLC: 8  Data: 0x00 0x00 0x6F 0xFF 0xFF 0xFF 0x00 0x00
Standard ID: 0x418       DLC: 8  Data: 0x20 0x53 0x52 0x08 0xFF 0xFF 0x7F 0xFF
Standard ID: 0x418       DLC: 8  Data: 0x20 0x53 0x52 0x08 0xFF 0xFF 0xBF 0xFF
Standard ID: 0x338       DLC: 8  Data: 0x00 0x00 0x0F 0xFF 0xFF 0xFF 0x00 0x00
Standard ID: 0x418       DLC: 8  Data: 0x20 0x53 0x52 0x08 0xFF 0xFF 0xBF 0xFF
Standard ID: 0x418       DLC: 8  Data: 0x20 0x53 0x52 0x08 0xFF 0xFF 0xBF 0xFF
Standard ID: 0x338       DLC: 8  Data: 0x00 0x00 0x0F 0xFF 0xFF 0xFF 0x00 0x00
Standard ID: 0x418       DLC: 8  Data: 0x20 0x53 0x52 0x08 0xFF 0xFF 0xBF 0xFF
Standard ID: 0x418       DLC: 8  Data: 0x20 0x53 0x52 0x08 0xFF 0xFF 0x7F 0xFF
Standard ID: 0x338       DLC: 8  Data: 0x00 0x00 0x6F 0xFF 0xFF 0xFF 0x00 0x00
Standard ID: 0x418       DLC: 8  Data: 0x20 0x53 0x52 0x08 0xFF 0xFF 0x7F 0xFF
Standard ID: 0x418       DLC: 8  Data: 0x20 0x53 0x52 0x08 0xFF 0xFF 0x7F 0xFF
Standard ID: 0x218       DLC: 8  Data: 0xCB 0x84 0xFF 0x48 0x10 0x80 0xFF 0x82
Standard ID: 0x418       DLC: 8  Data: 0x20 0x53 0x52 0x08 0xFF 0xFF 0x7F 0xFF
Standard ID: 0x418       DLC: 8  Data: 0x20 0x53 0x52 0x08 0xFF 0xFF 0xBF 0xFF
Standard ID: 0x418       DLC: 8  Data: 0x20 0x53 0x52 0x08 0xFF 0xFF 0xBF 0xFF
Standard ID: 0x338       DLC: 8  Data: 0x00 0x00 0x0F 0xFF 0xFF 0xFF 0x00 0x00
Standard ID: 0x418       DLC: 8  Data: 0x20 0x53 0x52 0x08 0xFF 0xFF 0xBF 0xFF
Standard ID: 0x418       DLC: 8  Data: 0x20 0x53 0x52 0x08 0xFF 0xFF 0xBF 0xFF
Standard ID: 0x338       DLC: 8  Data: 0x00 0x00 0x6F 0xFF 0xFF 0xFF 0x00 0x00
Standard ID: 0x418       DLC: 8  Data: 0x20 0x53 0x52 0x08 0xFF 0xFF 0x7F 0xFF
Standard ID: 0x418       DLC: 8  Data: 0x20 0x53 0x52 0x08 0xFF 0xFF 0x7F 0xFF
Standard ID: 0x338       DLC: 8  Data: 0x00 0x00 0x6F 0xFF 0xFF 0xFF 0x00 0x00
Standard ID: 0x418       DLC: 8  Data: 0x20 0x53 0x52 0x08 0xFF 0xFF 0x7F 0xFF
Standard ID: 0x418       DLC: 8  Data: 0x20 0x53 0x52 0x08 0xFF 0xFF 0x7F 0xFF
Standard ID: 0x338       DLC: 8  Data: 0x00 0x00 0x0F 0xFF 0xFF 0xFF 0x00 0x00
Standard ID: 0x418       DLC: 8  Data: 0x20 0x53 0x52 0x08 0xFF 0xFF 0xBF 0xFF
Standard ID: 0x418       DLC: 8  Data: 0x20 0x53 0x52 0x08 0xFF 0xFF 0xBF 0xFF
